
**** 02/25/15 09:56:31 ****** PSpice 16.5.0 (April 2011) ****** ID# 0 ********

 ** Profile: "SCH-1MOS-bias"  [ C:\Users\Carlos\Documents\DummyLoad\dummy load-pspicefiles\sch-1mos\bias.sim ] 


 ****     CIRCUIT DESCRIPTION


******************************************************************************




** Creating circuit file "bias.cir" 
** WARNING: THIS AUTOMATICALLY GENERATED FILE MAY BE OVERWRITTEN BY SUBSEQUENT SIMULATIONS

*Libraries: 
* Profile Libraries :
* Local Libraries :
* From [PSPICE NETLIST] section of C:\Cadence\SPB_16.5\tools\PSpice\PSpice.ini file:
.lib "C:\Cadence\SPB_16.5\tools\pspice\library\anl_misc.lib" 
.lib "C:\Cadence\SPB_16.5\tools\capture\library\pspice\CSD18502KCS.lib" 
.lib "nom.lib" 

*Analysis directives: 
.TRAN  0 10ms 0 
.PROBE V(alias(*)) I(alias(*)) W(alias(*)) D(alias(*)) NOISE(alias(*)) 
.INC "..\SCH-1MOS.net" 



**** INCLUDING SCH-1MOS.net ****
* source DUMMY LOAD
V_Vcc         VCC 0 5V
R_R3         0 N14704  0.5  
V_Vss         VSS 0 {VSS}
X_X1         VSS N45179 N14704 CSD18502KCS
R_R5         N27580 PWM1  10k  
R_R6         0 N27580  4.2k  
R_R7         N28782 N27580  1k  
C_C1         0 N28782  0.1u  
V_V1         PWM 0  AC 5V
+PULSE 0V 5V 10e-9 10e-9 10e-9 {D*PER} {PER}
X_U6         PWM PWM1 Sw_tOpen PARAMS: tOpen=0 ttran=1u Rclosed=0.01 Ropen=1Meg
X_U7         PWM PWM1 Sw_tClose PARAMS: tClose=3m ttran=1u Rclosed=0.01
+  Ropen=1Meg
R_R9         N45179 N42822  10k  
R_R4         N42822 0  100k  
X_X2         VSS N45179 N14704 CSD18502KCS
D_D1         VCC N47862 D1N4007 
R_R10         0 N47862  500  
X_U8B         N50153 N14704 VCC 0 N42822 LMC662A/NS
C_C2         0 N50153  0.1u  
R_R8         N50153 N51221  1k  
X_U8A         N28782 N51221 VCC 0 N512554 LMC662A/NS
R_R11         N51221 N512554  100k  
.PARAM  per=5e-5 pw={d*per} d=0 vss=12

**** RESUMING bias.cir ****
.END

INFO(ORPSIM-15453): Model X_X1.NMOS: Using BSIM VERSION 3.2

INFO(ORPSIM-15453): Model X_X2.NMOS: Using BSIM VERSION 3.2

**** 02/25/15 09:56:31 ****** PSpice 16.5.0 (April 2011) ****** ID# 0 ********

 ** Profile: "SCH-1MOS-bias"  [ C:\Users\Carlos\Documents\DummyLoad\dummy load-pspicefiles\sch-1mos\bias.sim ] 


 ****     Diode MODEL PARAMETERS


******************************************************************************




               D1N4007         D1N4001         X_U8B.DA        X_U8B.DB        
          IS   14.110000E-09   14.110000E-09   13.000000E-15   12.000000E-15 
           N    1.984           1.984                                        
         IKF   94.81           94.81                                         
          BV    1.500000E+03   75                                            
         IBV   10.000000E-06   10.000000E-06                                 
          RS     .03389          .03389                                      
          TT    5.700000E-06    5.700000E-06                                 
         CJO   25.890000E-12   25.890000E-12                                 
          VJ     .3245           .3245                                       
           M     .44             .44                                         


               X_U8B.DX        X_U8A.DA        X_U8A.DB        X_U8A.DX        
          IS   10.000000E-15   13.000000E-15   12.000000E-15   10.000000E-15 


**** 02/25/15 09:56:31 ****** PSpice 16.5.0 (April 2011) ****** ID# 0 ********

 ** Profile: "SCH-1MOS-bias"  [ C:\Users\Carlos\Documents\DummyLoad\dummy load-pspicefiles\sch-1mos\bias.sim ] 


 ****     MOSFET MODEL PARAMETERS


******************************************************************************




               X_U8B.MX        X_U8A.MX        
               PMOS            PMOS            
       LEVEL    1               1            
           L  100.000000E-06  100.000000E-06 
           W  100.000000E-06  100.000000E-06 
         VTO   -2.45           -2.45         
          KP  705.470000E-06  705.470000E-06 
       GAMMA    0               0            
         PHI     .6              .6          
      LAMBDA    0               0            
          IS   10.000000E-15   10.000000E-15 
          JS    0               0            
          PB     .8              .8          
        PBSW     .8              .8          
          CJ    0               0            
        CJSW    0               0            
        CGSO    0               0            
        CGDO    0               0            
        CGBO    0               0            
         TOX    0               0            
          XJ    0               0            
       UCRIT   10.000000E+03   10.000000E+03 
      DIOMOD    1               1            
         VFB    0               0            
        LETA    0               0            
        WETA    0               0            
          U0    0               0            
        TEMP    0               0            
         VDD    5               5            
       XPART    0               0            


**** 02/25/15 09:56:31 ****** PSpice 16.5.0 (April 2011) ****** ID# 0 ********

 ** Profile: "SCH-1MOS-bias"  [ C:\Users\Carlos\Documents\DummyLoad\dummy load-pspicefiles\sch-1mos\bias.sim ] 


 ****     Voltage Controlled Switch MODEL PARAMETERS


******************************************************************************




               X_U6.Smod       X_U7.Smod       
         RON     .01             .01         
        ROFF    1.000000E+06    1.000000E+06 
         VON    1               1            
        VOFF    0               0            


**** 02/25/15 09:56:31 ****** PSpice 16.5.0 (April 2011) ****** ID# 0 ********

 ** Profile: "SCH-1MOS-bias"  [ C:\Users\Carlos\Documents\DummyLoad\dummy load-pspicefiles\sch-1mos\bias.sim ] 


 ****     INITIAL TRANSIENT SOLUTION       TEMPERATURE =   27.000 DEG C


******************************************************************************



 NODE   VOLTAGE     NODE   VOLTAGE     NODE   VOLTAGE     NODE   VOLTAGE


(  PWM)    0.0000  (  VCC)    5.0000  (  VSS)   12.0000  ( PWM1) 14.83E-15      

(N14704)     .0384 (N27580) 14.83E-09 (N28782) 19.84E-09 (N42822)    2.0165     

(N45179)    2.0165 (N47862)    4.3160 (N50153)     .0356 (N51221)     .0356     

(X_U6.3)    1.0000 (X_U7.3)    0.0000 (X_X1.4)   12.0000 (X_X1.5)    2.0165     

(X_X1.6)     .0384 (X_X1.7)   12.0000 (X_X1.8)     .0384 (X_X1.9)     .0384     

(X_X2.4)   12.0000 (X_X2.5)    2.0165 (X_X2.6)     .0384 (X_X2.7)   12.0000     

(X_X2.8)     .0384 (X_X2.9)     .0384 (N512554)     .0356                       

(X_U8A.4)    2.7300                   (X_U8A.5)     .1153                       

(X_U8A.6)     .1483                   (X_U8A.7)     .0028                       

(X_U8A.8)    4.2790                   (X_U8A.9)     .0350                       

(X_U8B.4)    2.7498                   (X_U8B.5)     .1318                       

(X_U8B.6)     .1318                   (X_U8B.7)     .0384                       

(X_U8B.8)    4.2790                   (X_U8B.9)    2.0180                       

(X_X1.10)   12.0000                   (X_X1.11)    2.0165                       

(X_X1.12)     .0384                   (X_X2.10)   12.0000                       

(X_X2.11)    2.0165                   (X_X2.12)     .0384                       

(X_U8A.10)     .7210                  (X_U8A.11)     .0350                      

(X_U8A.12)     .1878                  (X_U8A.13)     .1878                      

(X_U8A.14)     .1878                  (X_U8A.15)     .0351                      

(X_U8A.16)    2.4998                  (X_U8A.17)    2.4998                      

(X_U8A.19)     .0351                  (X_U8A.20)     .6656                      

(X_U8A.21)    -.5944                  (X_U8A.22)     .0356                      

(X_U8A.23)     .0351                  (X_U8A.24)     .0508                      

(X_U8A.25)     .0203                  (X_U8A.26)     .6656                      

(X_U8A.27)    -.5944                  (X_U8A.29)     .6656                      

(X_U8A.30)    -.5944                  (X_U8A.49)    2.5000                      

(X_U8A.96)    0.0000                  (X_U8A.97)    5.0000                      

(X_U8A.98)    2.5000                  (X_U8B.10)     .7210                      

(X_U8B.11)    2.0180                  (X_U8B.12)    -.5541                      

(X_U8B.13)    -.5541                  (X_U8B.14)    -.5541                      

(X_U8B.15)    2.0180                  (X_U8B.16)    2.4998                      

(X_U8B.17)    2.4998                  (X_U8B.19)    2.0180                      

(X_U8B.20)    2.6465                  (X_U8B.21)    1.3865                      

(X_U8B.22)    2.0165                  (X_U8B.23)    2.0180                      

(X_U8B.24)    2.0330                  (X_U8B.25)    2.0026                      

(X_U8B.26)    2.6465                  (X_U8B.27)    1.3865                      

(X_U8B.29)    2.6465                  (X_U8B.30)    1.3865                      

(X_U8B.49)    2.5000                  (X_U8B.96)    0.0000                      

(X_U8B.97)    5.0000                  (X_U8B.98)    2.5000                      

(X_X1.xcds.5)   11.9620               (X_X1.xcds.6) 1.358E-09                   

(X_X1.xcds.7)    0.0000               (X_X1.xcds.8)    0.0000                   

(X_X1.xcgd.5)   11.9620               (X_X1.xcgd.6) 30.74E-12                   

(X_X1.xcgd.7)    0.0000               (X_X1.xcgd.8)    0.0000                   

(X_X2.xcds.5)   11.9620               (X_X2.xcds.6) 1.358E-09                   

(X_X2.xcds.7)    0.0000               (X_X2.xcds.8)    0.0000                   

(X_X2.xcgd.5)   11.9620               (X_X2.xcgd.6) 30.74E-12                   

(X_X2.xcgd.7)    0.0000               (X_X2.xcgd.8)    0.0000               




    VOLTAGE SOURCE CURRENTS
    NAME         CURRENT

    V_Vcc       -9.402E-03
    V_Vss       -7.681E-02
    V_V1         1.483E-12
    X_U6.V1     -1.000E-12
    X_U7.V1      0.000E+00
    X_U8B.VA1    2.017E-05
    X_U8B.VA2    2.017E-05
    X_U8B.VA3   -5.641E-13
    X_U8B.V2     2.271E-12
    X_U8B.V3     1.307E-12
    X_U8B.V4    -6.386E-13
    X_U8B.V5    -6.414E-13
    X_U8B.V6    -2.004E-04
    X_U8B.V7    -2.206E-04
    X_U8A.VA1   -1.480E-11
    X_U8A.VA2   -1.978E-13
    X_U8A.VA3    1.441E-11
    X_U8A.V2     4.254E-12
    X_U8A.V3    -3.297E-03
    X_U8A.V4    -6.405E-13
    X_U8A.V5    -6.395E-13
    X_U8A.V6    -2.102E-04
    X_U8A.V7    -2.102E-04
    X_X1.xcgd.v1   0.000E+00
    X_X1.xcds.v1   0.000E+00
    X_X2.xcgd.v1   0.000E+00
    X_X2.xcds.v1   0.000E+00

    TOTAL POWER DISSIPATION   9.72E-01  WATTS



          JOB CONCLUDED

**** 02/25/15 09:56:31 ****** PSpice 16.5.0 (April 2011) ****** ID# 0 ********

 ** Profile: "SCH-1MOS-bias"  [ C:\Users\Carlos\Documents\DummyLoad\dummy load-pspicefiles\sch-1mos\bias.sim ] 


 ****     JOB STATISTICS SUMMARY


******************************************************************************



  Total job time (using Solver 1)   =        1.78
