
**** 02/15/15 12:42:32 ****** PSpice 16.5.0 (April 2011) ****** ID# 0 ********

 ** Profile: "SCH-1MOS-VSS-Change"  [ C:\Users\Carlos\Documents\DummyLoad\Dummy Load-PSpiceFiles\SCH-1MOS\VSS-Change.sim ] 


 ****     CIRCUIT DESCRIPTION


******************************************************************************




** Creating circuit file "VSS-Change.cir" 
** WARNING: THIS AUTOMATICALLY GENERATED FILE MAY BE OVERWRITTEN BY SUBSEQUENT SIMULATIONS

*Libraries: 
* Profile Libraries :
* Local Libraries :
* From [PSPICE NETLIST] section of C:\Cadence\SPB_16.5\tools\PSpice\PSpice.ini file:
.lib "C:\Cadence\SPB_16.5\tools\capture\library\pspice\CSD18502KCS.lib" 
.lib "nom.lib" 

*Analysis directives: 
.TRAN  0 10ms 0 
.STEP LIN PARAM VSS 1 20 1 
.PROBE V(alias(*)) I(alias(*)) W(alias(*)) D(alias(*)) NOISE(alias(*)) 
.INC "..\SCH-1MOS.net" 



**** INCLUDING SCH-1MOS.net ****
* source DUMMY LOAD
V_Vcc         VCC 0 5V
R_R3         0 N14702  0.5  
V_Vss         VSS 0 {VSS}
R_R4         N17115 0  10k  
X_U1A         N32894 N14702 VCC 0 N17115 LM324
X_X1         VSS N17115 N14702 CSD18502KCS
X_U1B         N28782 N27021 VCC 0 N27021 LM324
R_R5         N27580 PWM  10K  
R_R6         0 N27580  4.2K  
R_R7         N28782 N27580  1k  
C_C1         0 N28782  0.1u  
V_V1         PWM 0  AC 5V
+PULSE 0V 5V 10e-9 10e-9 10e-9 {1*PER} {PER}
R_R8         N32894 N27021  1k  
C_C2         0 N32894  0.1u  
.PARAM  per=2e-4 pw={1*per} vss=3

**** RESUMING VSS-Change.cir ****
.END

INFO(ORPSIM-15453): Model X_X1.NMOS: Using BSIM VERSION 3.2

**** 02/15/15 12:42:32 ****** PSpice 16.5.0 (April 2011) ****** ID# 0 ********

 ** Profile: "SCH-1MOS-VSS-Change"  [ C:\Users\Carlos\Documents\DummyLoad\Dummy Load-PSpiceFiles\SCH-1MOS\VSS-Change.sim ] 


 ****     Diode MODEL PARAMETERS


******************************************************************************




               X_U1A.dx        X_U1A.dy        X_U1B.dx        X_U1B.dy        
          IS  800.000000E-18  800.000000E-18  800.000000E-18  800.000000E-18 
          RS    1               1.000000E-03    1               1.000000E-03 
         CJO                   10.000000E-12                   10.000000E-12 


**** 02/15/15 12:42:32 ****** PSpice 16.5.0 (April 2011) ****** ID# 0 ********

 ** Profile: "SCH-1MOS-VSS-Change"  [ C:\Users\Carlos\Documents\DummyLoad\Dummy Load-PSpiceFiles\SCH-1MOS\VSS-Change.sim ] 


 ****     BJT MODEL PARAMETERS


******************************************************************************




               X_U1A.qx        X_U1B.qx        
               PNP             PNP             
       LEVEL    1               1            
          IS  800.000000E-18  800.000000E-18 
          BF  166.7           166.7          
          NF    1               1            
          BR    1               1            
          NR    1               1            
         ISS    0               0            
          RE    0               0            
          RC    0               0            
         CJE    0               0            
         VJE     .75             .75         
         CJC    0               0            
         VJC     .75             .75         
         MJC     .33             .33         
        XCJC    1               1            
         CJS    0               0            
         VJS     .75             .75         
          KF    0               0            
          AF    1               1            
          CN    2.2             2.2          
           D     .52             .52         


**** 02/15/15 12:42:32 ****** PSpice 16.5.0 (April 2011) ****** ID# 0 ********

 ** Profile: "SCH-1MOS-VSS-Change"  [ C:\Users\Carlos\Documents\DummyLoad\Dummy Load-PSpiceFiles\SCH-1MOS\VSS-Change.sim ] 


 ****     Current Controlled Switch MODEL PARAMETERS


******************************************************************************




               X_U1A.sw2       X_U1A.sw1       X_U1A.sw3       X_U1A.sw4       
         RON    1               1               1               1            
        ROFF   10.000000E+06   10.000000E+06   10.000000E+06   10.000000E+06 
         ION    0              -1.000000E-06   -1.000000E-06    0            
        IOFF   -1.000000E-06    0               0              -1.000000E-06 


               X_U1B.sw2       X_U1B.sw1       X_U1B.sw3       X_U1B.sw4       
         RON    1               1               1               1            
        ROFF   10.000000E+06   10.000000E+06   10.000000E+06   10.000000E+06 
         ION    0              -1.000000E-06   -1.000000E-06    0            
        IOFF   -1.000000E-06    0               0              -1.000000E-06 


WARNING(ORPSIM-15452): Pulse Period < (Rise Time + Fall Time + Pulse Width) for V_V1.

WARNING(ORPSIM-15452): Pulse Period < (Rise Time + Fall Time + Pulse Width) for V_V1.

Model-Specific Temperatures During Sweep  Param value = 1

 **** DIODE MODEL PARAMETERS

               X_X1.DBD (T_Current 27 T_Measured 25)

         IS        1.076E-11  
         VJ        4.948E-01  
        CJO        7.553E-15  
         RS        1.260E-03  
        IKF        0.000E+00  
         BV        4.100E+01  


 **** MOSFET MODEL PARAMETERS

               X_X1.NMOS (T_Current 27 T_Measured 25)

         UA        5.002E-10  
         UB        4.995E-18  
         UC       -4.688E-11  
        VBX       -1.539E+00  
     GAMMA1        2.380E+00  
         K1        2.965E+00  
         K2       -4.761E-01  
       VTH0        2.532E+00  


WARNING(ORPSIM-15452): Pulse Period < (Rise Time + Fall Time + Pulse Width) for V_V1.

**** 02/15/15 12:42:32 ****** PSpice 16.5.0 (April 2011) ****** ID# 0 ********

 ** Profile: "SCH-1MOS-VSS-Change"  [ C:\Users\Carlos\Documents\DummyLoad\Dummy Load-PSpiceFiles\SCH-1MOS\VSS-Change.sim ] 


 ****     INITIAL TRANSIENT SOLUTION       TEMPERATURE =   27.000 DEG C

 ****     CURRENT STEP                     PARAM VSS =    1     


******************************************************************************



 NODE   VOLTAGE     NODE   VOLTAGE     NODE   VOLTAGE     NODE   VOLTAGE


(  PWM)    0.0000  (  VCC)    5.0000  (  VSS)    1.0000  (N14702)     .0102     

(N17115)    2.0761 (N27021)     .0096 (N27580) 150.1E-06 (N28782) 200.8E-06     

(N32894)     .0096 (X_X1.4)    1.0000 (X_X1.5)    2.0761 (X_X1.6)     .0102     

(X_X1.7)    1.0000 (X_X1.8)     .0102 (X_X1.9)     .0102 (X_U1A.6) 76.94E-06    

(X_U1A.7)    2.0864                   (X_U1A.8)    2.0864                       

(X_U1A.9)    0.0000                   (X_U1A.a)    4.9998                       

(X_U1A.b)-207.6E-06                   (X_U1B.6)     .1660                       

(X_U1B.7)   -1.7412                   (X_U1B.8)   -1.7412                       

(X_U1B.9)    0.0000                   (X_U1B.a)     .0350                       

(X_U1B.b)     .0350                   (X_X1.10)    1.0000                       

(X_X1.11)    2.0761                   (X_X1.12)     .0102                       

(X_U1A.10)     .6181                  (X_U1A.11)     .0399                      

(X_U1A.12)     .0405                  (X_U1A.13)     .6041                      

(X_U1A.14)     .6039                  (X_U1A.53)    3.5000                      

(X_U1A.54)     .8220                  (X_U1A.90)     .2076                      

(X_U1A.91)   40.0000                  (X_U1A.92)  -40.0000                      

(X_U1A.99)    2.5000                  (X_U1B.10)     .6129                      

(X_U1B.11)     .0355                  (X_U1B.12)     .0449                      

(X_U1B.13)     .6005                  (X_U1B.14)     .5972                      

(X_U1B.53)    3.5000                  (X_U1B.54)     .8220                      

(X_U1B.90)  -35.0150                  (X_U1B.91)   40.0000                      

(X_U1B.92)  -40.0000                  (X_U1B.99)    2.5000                      

(X_X1.xcds.5)     .9898               (X_X1.xcds.6) 4.933E-09                   

(X_X1.xcds.7)    0.0000               (X_X1.xcds.8)    0.0000                   

(X_X1.xcgd.5)     .9898               (X_X1.xcgd.6) 335.6E-12                   

(X_X1.xcgd.7)    0.0000               (X_X1.xcgd.8)    0.0000               




    VOLTAGE SOURCE CURRENTS
    NAME         CURRENT

    V_Vcc       -1.340E-03
    V_Vss       -2.043E-02
    V_V1         1.501E-08
    X_U1A.vb     7.694E-10
    X_U1A.vc     1.425E-12
    X_U1A.ve     1.167E-12
    X_U1A.vlim   2.076E-04
    X_U1A.vlp   -3.979E-11
    X_U1A.vln   -4.021E-11
    X_U1B.vb     1.660E-06
    X_U1B.vc     3.491E-12
    X_U1B.ve    -3.501E-02
    X_U1B.vlim  -3.501E-02
    X_U1B.vlp   -7.502E-11
    X_U1B.vln   -4.990E-12
    X_X1.xcgd.v1   0.000E+00
    X_X1.xcds.v1   0.000E+00

    TOTAL POWER DISSIPATION   5.59E-02  WATTS


WARNING(ORPSIM-15452): Pulse Period < (Rise Time + Fall Time + Pulse Width) for V_V1.

Model-Specific Temperatures During Sweep  Param value = 2

 **** DIODE MODEL PARAMETERS

               X_X1.DBD (T_Current 27 T_Measured 25)

         IS        1.076E-11  
         VJ        4.948E-01  
        CJO        7.553E-15  
         RS        1.260E-03  
        IKF        0.000E+00  
         BV        4.100E+01  


 **** MOSFET MODEL PARAMETERS

               X_X1.NMOS (T_Current 27 T_Measured 25)

         UA        5.002E-10  
         UB        4.995E-18  
         UC       -4.688E-11  
        VBX       -1.539E+00  
     GAMMA1        2.380E+00  
         K1        2.965E+00  
         K2       -4.761E-01  
       VTH0        2.532E+00  


WARNING(ORPSIM-15452): Pulse Period < (Rise Time + Fall Time + Pulse Width) for V_V1.

**** 02/15/15 12:42:32 ****** PSpice 16.5.0 (April 2011) ****** ID# 0 ********

 ** Profile: "SCH-1MOS-VSS-Change"  [ C:\Users\Carlos\Documents\DummyLoad\Dummy Load-PSpiceFiles\SCH-1MOS\VSS-Change.sim ] 


 ****     INITIAL TRANSIENT SOLUTION       TEMPERATURE =   27.000 DEG C

 ****     CURRENT STEP                     PARAM VSS =    2     


******************************************************************************



 NODE   VOLTAGE     NODE   VOLTAGE     NODE   VOLTAGE     NODE   VOLTAGE


(  PWM)    0.0000  (  VCC)    5.0000  (  VSS)    2.0000  (N14702)     .0102     

(N17115)    2.0553 (N27021)     .0096 (N27580) 150.1E-06 (N28782) 200.8E-06     

(N32894)     .0096 (X_X1.4)    2.0000 (X_X1.5)    2.0553 (X_X1.6)     .0102     

(X_X1.7)    2.0000 (X_X1.8)     .0102 (X_X1.9)     .0102 (X_U1A.6) 80.88E-06    

(X_U1A.7)    2.0656                   (X_U1A.8)    2.0656                       

(X_U1A.9)    0.0000                   (X_U1A.a)    4.9998                       

(X_U1A.b)-205.5E-06                   (X_U1B.6)     .1660                       

(X_U1B.7)   -1.7412                   (X_U1B.8)   -1.7412                       

(X_U1B.9)    0.0000                   (X_U1B.a)     .0350                       

(X_U1B.b)     .0350                   (X_X1.10)    2.0000                       

(X_X1.11)    2.0553                   (X_X1.12)     .0102                       

(X_U1A.10)     .6181                  (X_U1A.11)     .0399                      

(X_U1A.12)     .0405                  (X_U1A.13)     .6041                      

(X_U1A.14)     .6039                  (X_U1A.53)    3.5000                      

(X_U1A.54)     .8220                  (X_U1A.90)     .2055                      

(X_U1A.91)   40.0000                  (X_U1A.92)  -40.0000                      

(X_U1A.99)    2.5000                  (X_U1B.10)     .6129                      

(X_U1B.11)     .0355                  (X_U1B.12)     .0449                      

(X_U1B.13)     .6005                  (X_U1B.14)     .5972                      

(X_U1B.53)    3.5000                  (X_U1B.54)     .8220                      

(X_U1B.90)  -35.0150                  (X_U1B.91)   40.0000                      

(X_U1B.92)  -40.0000                  (X_U1B.99)    2.5000                      

(X_X1.xcds.5)    1.9898               (X_X1.xcds.6) 4.167E-09                   

(X_X1.xcds.7)    0.0000               (X_X1.xcds.8)    0.0000                   

(X_X1.xcgd.5)    1.9898               (X_X1.xcgd.6) 311.2E-12                   

(X_X1.xcgd.7)    0.0000               (X_X1.xcgd.8)    0.0000               




    VOLTAGE SOURCE CURRENTS
    NAME         CURRENT

    V_Vcc       -1.338E-03
    V_Vss       -2.043E-02
    V_V1         1.501E-08
    X_U1A.vb     8.088E-10
    X_U1A.vc     1.445E-12
    X_U1A.ve     1.146E-12
    X_U1A.vlim   2.055E-04
    X_U1A.vlp   -3.980E-11
    X_U1A.vln   -4.021E-11
    X_U1B.vb     1.660E-06
    X_U1B.vc     3.491E-12
    X_U1B.ve    -3.501E-02
    X_U1B.vlim  -3.501E-02
    X_U1B.vlp   -7.502E-11
    X_U1B.vln   -4.990E-12
    X_X1.xcgd.v1   0.000E+00
    X_X1.xcds.v1   0.000E+00

    TOTAL POWER DISSIPATION   7.63E-02  WATTS


WARNING(ORPSIM-15452): Pulse Period < (Rise Time + Fall Time + Pulse Width) for V_V1.

Model-Specific Temperatures During Sweep  Param value = 3

 **** DIODE MODEL PARAMETERS

               X_X1.DBD (T_Current 27 T_Measured 25)

         IS        1.076E-11  
         VJ        4.948E-01  
        CJO        7.553E-15  
         RS        1.260E-03  
        IKF        0.000E+00  
         BV        4.100E+01  


 **** MOSFET MODEL PARAMETERS

               X_X1.NMOS (T_Current 27 T_Measured 25)

         UA        5.002E-10  
         UB        4.995E-18  
         UC       -4.688E-11  
        VBX       -1.539E+00  
     GAMMA1        2.380E+00  
         K1        2.965E+00  
         K2       -4.761E-01  
       VTH0        2.532E+00  


WARNING(ORPSIM-15452): Pulse Period < (Rise Time + Fall Time + Pulse Width) for V_V1.

**** 02/15/15 12:42:32 ****** PSpice 16.5.0 (April 2011) ****** ID# 0 ********

 ** Profile: "SCH-1MOS-VSS-Change"  [ C:\Users\Carlos\Documents\DummyLoad\Dummy Load-PSpiceFiles\SCH-1MOS\VSS-Change.sim ] 


 ****     INITIAL TRANSIENT SOLUTION       TEMPERATURE =   27.000 DEG C

 ****     CURRENT STEP                     PARAM VSS =    3     


******************************************************************************



 NODE   VOLTAGE     NODE   VOLTAGE     NODE   VOLTAGE     NODE   VOLTAGE


(  PWM)    0.0000  (  VCC)    5.0000  (  VSS)    3.0000  (N14702)     .0102     

(N17115)    2.0379 (N27021)     .0096 (N27580) 150.1E-06 (N28782) 200.8E-06     

(N32894)     .0096 (X_X1.4)    3.0000 (X_X1.5)    2.0379 (X_X1.6)     .0102     

(X_X1.7)    3.0000 (X_X1.8)     .0102 (X_X1.9)     .0102 (X_U1A.6) 84.19E-06    

(X_U1A.7)    2.0481                   (X_U1A.8)    2.0481                       

(X_U1A.9)    0.0000                   (X_U1A.a)    4.9998                       

(X_U1A.b)-203.8E-06                   (X_U1B.6)     .1660                       

(X_U1B.7)   -1.7412                   (X_U1B.8)   -1.7412                       

(X_U1B.9)    0.0000                   (X_U1B.a)     .0350                       

(X_U1B.b)     .0350                   (X_X1.10)    3.0000                       

(X_X1.11)    2.0379                   (X_X1.12)     .0102                       

(X_U1A.10)     .6181                  (X_U1A.11)     .0399                      

(X_U1A.12)     .0405                  (X_U1A.13)     .6041                      

(X_U1A.14)     .6039                  (X_U1A.53)    3.5000                      

(X_U1A.54)     .8220                  (X_U1A.90)     .2038                      

(X_U1A.91)   40.0000                  (X_U1A.92)  -40.0000                      

(X_U1A.99)    2.5000                  (X_U1B.10)     .6129                      

(X_U1B.11)     .0355                  (X_U1B.12)     .0449                      

(X_U1B.13)     .6005                  (X_U1B.14)     .5972                      

(X_U1B.53)    3.5000                  (X_U1B.54)     .8220                      

(X_U1B.90)  -35.0150                  (X_U1B.91)   40.0000                      

(X_U1B.92)  -40.0000                  (X_U1B.99)    2.5000                      

(X_X1.xcds.5)    2.9898               (X_X1.xcds.6) 3.704E-09                   

(X_X1.xcds.7)    0.0000               (X_X1.xcds.8)    0.0000                   

(X_X1.xcgd.5)    2.9898               (X_X1.xcgd.6) 291.2E-12                   

(X_X1.xcgd.7)    0.0000               (X_X1.xcgd.8)    0.0000               




    VOLTAGE SOURCE CURRENTS
    NAME         CURRENT

    V_Vcc       -1.336E-03
    V_Vss       -2.043E-02
    V_V1         1.501E-08
    X_U1A.vb     8.419E-10
    X_U1A.vc     1.463E-12
    X_U1A.ve     1.128E-12
    X_U1A.vlim   2.038E-04
    X_U1A.vlp   -3.980E-11
    X_U1A.vln   -4.021E-11
    X_U1B.vb     1.660E-06
    X_U1B.vc     3.491E-12
    X_U1B.ve    -3.501E-02
    X_U1B.vlim  -3.501E-02
    X_U1B.vlp   -7.502E-11
    X_U1B.vln   -4.990E-12
    X_X1.xcgd.v1   0.000E+00
    X_X1.xcds.v1   0.000E+00

    TOTAL POWER DISSIPATION   9.67E-02  WATTS


WARNING(ORPSIM-15452): Pulse Period < (Rise Time + Fall Time + Pulse Width) for V_V1.

Model-Specific Temperatures During Sweep  Param value = 4

 **** DIODE MODEL PARAMETERS

               X_X1.DBD (T_Current 27 T_Measured 25)

         IS        1.076E-11  
         VJ        4.948E-01  
        CJO        7.553E-15  
         RS        1.260E-03  
        IKF        0.000E+00  
         BV        4.100E+01  


 **** MOSFET MODEL PARAMETERS

               X_X1.NMOS (T_Current 27 T_Measured 25)

         UA        5.002E-10  
         UB        4.995E-18  
         UC       -4.688E-11  
        VBX       -1.539E+00  
     GAMMA1        2.380E+00  
         K1        2.965E+00  
         K2       -4.761E-01  
       VTH0        2.532E+00  


WARNING(ORPSIM-15452): Pulse Period < (Rise Time + Fall Time + Pulse Width) for V_V1.

**** 02/15/15 12:42:32 ****** PSpice 16.5.0 (April 2011) ****** ID# 0 ********

 ** Profile: "SCH-1MOS-VSS-Change"  [ C:\Users\Carlos\Documents\DummyLoad\Dummy Load-PSpiceFiles\SCH-1MOS\VSS-Change.sim ] 


 ****     INITIAL TRANSIENT SOLUTION       TEMPERATURE =   27.000 DEG C

 ****     CURRENT STEP                     PARAM VSS =    4     


******************************************************************************



 NODE   VOLTAGE     NODE   VOLTAGE     NODE   VOLTAGE     NODE   VOLTAGE


(  PWM)    0.0000  (  VCC)    5.0000  (  VSS)    4.0000  (N14702)     .0102     

(N17115)    2.0228 (N27021)     .0096 (N27580) 150.1E-06 (N28782) 200.8E-06     

(N32894)     .0096 (X_X1.4)    4.0000 (X_X1.5)    2.0228 (X_X1.6)     .0102     

(X_X1.7)    4.0000 (X_X1.8)     .0102 (X_X1.9)     .0102 (X_U1A.6) 87.06E-06    

(X_U1A.7)    2.0329                   (X_U1A.8)    2.0329                       

(X_U1A.9)    0.0000                   (X_U1A.a)    4.9998                       

(X_U1A.b)-202.3E-06                   (X_U1B.6)     .1660                       

(X_U1B.7)   -1.7412                   (X_U1B.8)   -1.7412                       

(X_U1B.9)    0.0000                   (X_U1B.a)     .0350                       

(X_U1B.b)     .0350                   (X_X1.10)    4.0000                       

(X_X1.11)    2.0228                   (X_X1.12)     .0102                       

(X_U1A.10)     .6181                  (X_U1A.11)     .0399                      

(X_U1A.12)     .0405                  (X_U1A.13)     .6041                      

(X_U1A.14)     .6039                  (X_U1A.53)    3.5000                      

(X_U1A.54)     .8220                  (X_U1A.90)     .2023                      

(X_U1A.91)   40.0000                  (X_U1A.92)  -40.0000                      

(X_U1A.99)    2.5000                  (X_U1B.10)     .6129                      

(X_U1B.11)     .0355                  (X_U1B.12)     .0449                      

(X_U1B.13)     .6005                  (X_U1B.14)     .5972                      

(X_U1B.53)    3.5000                  (X_U1B.54)     .8220                      

(X_U1B.90)  -35.0150                  (X_U1B.91)   40.0000                      

